
T1C30 000:307 SEGGER J-Link V5.00h Log File (0001ms, 0264ms total)
T1C30 000:307 DLL Compiled: Jul  9 2015 17:43:06 (0001ms, 0264ms total)
T1C30 000:307 Logging started @ 2018-10-11 16:54 (0001ms, 0264ms total)
T1C30 000:308 JLINK_SetWarnOutHandler(...) (0000ms, 0264ms total)
T1C30 000:308 JLINK_OpenEx(...)
Firmware: J-Link ARM V8 compiled Nov 28 2014 13:44:46
Hardware: V8.00
S/N: 788594195
Feature(s): RDI,FlashDL,FlashBP,JFlash,GDB  returns O.K. (0261ms, 0525ms total)
T1C30 000:569 JLINK_SetErrorOutHandler(...) (0000ms, 0525ms total)
T1C30 000:569 JLINK_ExecCommand("ProjectFile = "E:\陈云忠\傲基95&145&DX_4 -20180410\解密文件_20180410095926\DX_4_通用版\DX_4_V10-在V9版本上优化翻滚yaw偏转问题\project\JLinkSettings.ini"", ...)Device "CORTEX-M0" selected.  returns 0x00 (0057ms, 0582ms total)
T1C30 000:627 JLINK_ExecCommand("Device = HW2181FHNQ", ...)Device "CORTEX-M0" selected.  returns 0x00 (0000ms, 0582ms total)
T1C30 000:627 JLINK_ExecCommand("DisableConnectionTimeout", ...)  returns 0x01 (0000ms, 0582ms total)
T1C30 000:627 JLINK_GetHardwareVersion()  returns 0x13880 (0000ms, 0582ms total)
T1C30 000:627 JLINK_GetDLLVersion()  returns 50008 (0000ms, 0582ms total)
T1C30 000:627 JLINK_GetFirmwareString(...) (0000ms, 0582ms total)
T1C30 000:627 JLINK_GetDLLVersion()  returns 50008 (0000ms, 0582ms total)
T1C30 000:627 JLINK_GetCompileDateTime() (0000ms, 0582ms total)
T1C30 000:627 JLINK_GetFirmwareString(...) (0000ms, 0582ms total)
T1C30 000:627 JLINK_GetHardwareVersion()  returns 0x13880 (0000ms, 0582ms total)
T1C30 000:628 JLINK_TIF_Select(JLINKARM_TIF_SWD)  returns 0x00 (0002ms, 0584ms total)
T1C30 000:630 JLINK_SetSpeed(1000) (0000ms, 0584ms total)
T1C30 000:630 JLINK_GetId() >0x108 TIF>Found SWD-DP with ID 0x0BB11477 >0x0D TIF> >0x21 TIF> >0x0D TIF> >0x28 TIF> >0x0D TIF> >0x28 TIF> >0x0D TIF> >0x21 TIF> >0x0D TIF> >0x28 TIF> >0x0D TIF> >0x21 TIF> >0x0D TIF> >0x21 TIF> >0x0D TIF> >0x21 TIF> >0x0D TIF> >0x21 TIF> >0x0D TIF> >0x28 TIF> >0x0D TIF> >0x28 TIF> >0x0D TIF> >0x21 TIF> >0x0D TIF> >0x28 TIF> >0x0D TIF> >0x28 TIF> >0x0D TIF> >0x28 TIF> >0x0D TIF> >0x21 TIF> >0x0D TIF> >0x21 TIF> >0x0D TIF> >0x28 TIF> >0x0D TIF> >0x21 TIF> >0x0D TIF>
 >0x21 TIF>Found Cortex-M0 r0p0, Little endian. -- CPU_WriteMem(4 bytes @ 0xE0002000) -- CPU_ReadMem(4 bytes @ 0xE000EDF0) -- CPU_WriteMem(4 bytes @ 0xE000EDF0) -- CPU_ReadMem(4 bytes @ 0xE0002000)FPUnit: 4 code (BP) slots and 0 literal slots -- CPU_ReadMem(4 bytes @ 0xE000EDFC) -- CPU_WriteMem(4 bytes @ 0xE000EDFC) -- CPU_ReadMem(4 bytes @ 0xE0001000) -- CPU_WriteMem(4 bytes @ 0xE0001000)CoreSight components:ROMTbl 0 @ E00FF000 -- CPU_ReadMem(16 bytes @ 0xE00FF000) -- CPU_ReadMem(16 bytes @ 0xE000EFF0)
 -- CPU_ReadMem(16 bytes @ 0xE000EFE0)ROMTbl 0 [0]: FFF0F000, CID: B105E00D, PID: 000BB008 SCS -- CPU_ReadMem(16 bytes @ 0xE0001FF0) -- CPU_ReadMem(16 bytes @ 0xE0001FE0)ROMTbl 0 [1]: FFF02000, CID: B105E00D, PID: 000BB00A DWT -- CPU_ReadMem(16 bytes @ 0xE0002FF0) -- CPU_ReadMem(16 bytes @ 0xE0002FE0)ROMTbl 0 [2]: FFF03000, CID: B105E00D, PID: 000BB00B FPB >0x0D TIF> >0x21 TIF>  returns 0x0BB11477 (0035ms, 0619ms total)
T1C30 000:665 JLINK_GetDeviceFamily()  returns 6 (0000ms, 0619ms total)
T1C30 000:665 JLINK_ReadMem (0xE00FFFF0, 0x0010 Bytes, ...) -- CPU is running -- CPU_ReadMem(16 bytes @ 0xE00FFFF0) - Data: 0D 00 00 00 10 00 00 00 05 00 00 00 B1 00 00 00  returns 0x00 (0001ms, 0620ms total)
T1C30 000:666 JLINK_ReadMem (0xE00FFFD0, 0x0020 Bytes, ...) -- CPU is running -- CPU_ReadMem(32 bytes @ 0xE00FFFD0) - Data: 04 00 00 00 00 00 00 00 00 00 00 00 00 00 00 00 ...  returns 0x00 (0001ms, 0621ms total)
T1C30 000:667 JLINK_ReadMem (0xE00FF000, 0x0018 Bytes, ...) -- CPU is running -- CPU_ReadMem(24 bytes @ 0xE00FF000) - Data: 03 F0 F0 FF 03 20 F0 FF 03 30 F0 FF 00 00 00 00 ...  returns 0x00 (0001ms, 0622ms total)
T1C30 000:668 JLINK_ReadMemU32(0xE000ED00, 0x0001 Items, ...) -- CPU is running -- CPU_ReadMem(4 bytes @ 0xE000ED00) - Data: 00 C2 0C 41  returns 0x01 (0001ms, 0623ms total)
T1C30 000:669 JLINK_SetResetType(JLINKARM_RESET_TYPE_NORMAL)  returns JLINKARM_RESET_TYPE_NORMAL (0000ms, 0623ms total)
T1C30 000:669 JLINK_Reset() -- CPU is running -- CPU_WriteMem(4 bytes @ 0xE000EDF0) -- CPU is running -- CPU_WriteMem(4 bytes @ 0xE000EDFC) >0x35 TIF> -- CPU is running -- CPU_WriteMem(4 bytes @ 0xE000ED0C) -- CPU is running -- CPU_ReadMem(4 bytes @ 0xE000EDF0) -- CPU is running -- CPU_ReadMem(4 bytes @ 0xE000EDF0) -- CPU is running -- CPU_WriteMem(4 bytes @ 0xE000EDF0) -- CPU is running -- CPU_WriteMem(4 bytes @ 0xE000EDFC) -- CPU is running -- CPU_ReadMem(4 bytes @ 0xE000EDF0)
 -- CPU_WriteMem(4 bytes @ 0xE0002000) -- CPU_ReadMem(4 bytes @ 0xE000EDFC) -- CPU_ReadMem(4 bytes @ 0xE0001000) -- CPU_WriteMem(4 bytes @ 0xE0001000) (0022ms, 0645ms total)
T1C30 000:691 JLINK_Halt()  returns 0x00 (0000ms, 0645ms total)
T1C30 000:691 JLINK_IsHalted()  returns TRUE (0000ms, 0645ms total)
T1C30 000:691 JLINK_ReadMemU32(0xE000EDF0, 0x0001 Items, ...) -- CPU_ReadMem(4 bytes @ 0xE000EDF0) - Data: 03 00 03 00  returns 0x01 (0001ms, 0646ms total)
T1C30 000:692 JLINK_WriteU32(0xE000EDF0, 0xA05F0003) -- CPU_WriteMem(4 bytes @ 0xE000EDF0)  returns 0x00 (0001ms, 0647ms total)
T1C30 000:693 JLINK_WriteU32(0xE000EDFC, 0x01000000) -- CPU_WriteMem(4 bytes @ 0xE000EDFC)  returns 0x00 (0001ms, 0648ms total)
T1C30 000:694 JLINK_GetHWStatus(...)  returns 0x00 (0000ms, 0648ms total)
T1C30 000:695 JLINK_GetNumBPUnits(Type = 0xFFFFFF00)  returns 0x04 (0000ms, 0648ms total)
T1C30 000:695 JLINK_GetNumBPUnits(Type = 0xF0)  returns 0x2000 (0000ms, 0648ms total)
T1C30 000:695 JLINK_GetNumWPUnits()  returns 0x02 (0000ms, 0648ms total)
T1C30 000:695 JLINK_GetSpeed()  returns 0x3E8 (0000ms, 0648ms total)
T1C30 000:695 JLINK_ReadMemU32(0xE000E004, 0x0001 Items, ...) -- CPU_ReadMem(4 bytes @ 0xE000E004) - Data: 00 00 00 00  returns 0x01 (0001ms, 0649ms total)
T1C30 000:696 JLINK_Halt()  returns 0x00 (0000ms, 0649ms total)
T1C30 000:696 JLINK_IsHalted()  returns TRUE (0000ms, 0649ms total)
T1C30 000:699 JLINK_WriteMem(0x20000000, 0x01EC Bytes, ...) - Data: 00 BE 0A E0 0D 78 2D 06 68 40 08 24 40 00 00 D3 ... -- CPU_WriteMem(492 bytes @ 0x20000000)  returns 0x1EC (0008ms, 0657ms total)
T1C30 000:707 JLINK_WriteReg(R0, 0x00000000)  returns 0x00 (0000ms, 0657ms total)
T1C30 000:707 JLINK_WriteReg(R1, 0x01312D00)  returns 0x00 (0000ms, 0657ms total)
T1C30 000:707 JLINK_WriteReg(R2, 0x00000001)  returns 0x00 (0000ms, 0657ms total)
T1C30 000:707 JLINK_WriteReg(R3, 0x00000000)  returns 0x00 (0000ms, 0657ms total)
T1C30 000:707 JLINK_WriteReg(R4, 0x00000000)  returns 0x00 (0000ms, 0657ms total)
T1C30 000:707 JLINK_WriteReg(R5, 0x00000000)  returns 0x00 (0000ms, 0657ms total)
T1C30 000:707 JLINK_WriteReg(R6, 0x00000000)  returns 0x00 (0001ms, 0658ms total)
T1C30 000:708 JLINK_WriteReg(R7, 0x00000000)  returns 0x00 (0000ms, 0658ms total)
T1C30 000:708 JLINK_WriteReg(R8, 0x00000000)  returns 0x00 (0000ms, 0658ms total)
T1C30 000:708 JLINK_WriteReg(R9, 0x200001E8)  returns 0x00 (0000ms, 0658ms total)
T1C30 000:708 JLINK_WriteReg(R10, 0x00000000)  returns 0x00 (0000ms, 0658ms total)
T1C30 000:708 JLINK_WriteReg(R11, 0x00000000)  returns 0x00 (0000ms, 0658ms total)
T1C30 000:708 JLINK_WriteReg(R12, 0x00000000)  returns 0x00 (0000ms, 0658ms total)
T1C30 000:708 JLINK_WriteReg(R13 (SP), 0x20002000)  returns 0x00 (0000ms, 0658ms total)
T1C30 000:708 JLINK_WriteReg(R14, 0x20000001)  returns 0x00 (0000ms, 0658ms total)
T1C30 000:708 JLINK_WriteReg(R15 (PC), 0x20000038)  returns 0x00 (0000ms, 0658ms total)
T1C30 000:708 JLINK_WriteReg(XPSR, 0x01000000)  returns 0x00 (0000ms, 0658ms total)
T1C30 000:708 JLINK_WriteReg(MSP, 0x20002000)  returns 0x00 (0000ms, 0658ms total)
T1C30 000:708 JLINK_WriteReg(PSP, 0x20002000)  returns 0x00 (0000ms, 0658ms total)
T1C30 000:708 JLINK_WriteReg(CFBP, 0x00000000)  returns 0x00 (0000ms, 0658ms total)
T1C30 000:708 JLINK_SetBPEx(Addr = 0x20000000, Type = 0xFFFFFFF2) -- CPU_ReadMem(4 bytes @ 0x20000000) -- CPU_WriteMem(4 bytes @ 0x20000000) -- CPU_ReadMem(4 bytes @ 0x20000000) -- CPU_WriteMem(4 bytes @ 0x20000000) -- CPU_ReadMem(2 bytes @ 0x20000000)  returns 0x00000001 (0004ms, 0662ms total)
T1C30 000:712 JLINK_Go() -- CPU_WriteMem(2 bytes @ 0x20000000) -- CPU_ReadMem(4 bytes @ 0xE0001000) -- CPU_WriteMem(4 bytes @ 0xE0001000) -- CPU_WriteMem(4 bytes @ 0xE0002008) -- CPU_WriteMem(4 bytes @ 0xE000200C) -- CPU_WriteMem(4 bytes @ 0xE0002010) -- CPU_WriteMem(4 bytes @ 0xE0002014) -- CPU_WriteMem(4 bytes @ 0xE0001004) (0009ms, 0671ms total)
T1C30 000:721 JLINK_IsHalted() -- CPU_ReadMem(2 bytes @ 0x20000000)  returns TRUE (0006ms, 0677ms total)
T1C30 000:727 JLINK_ReadReg(R15 (PC))  returns 0x20000000 (0000ms, 0671ms total)
T1C30 000:727 JLINK_ClrBPEx(BPHandle = 0x00000001)  returns 0x00 (0000ms, 0671ms total)
T1C30 000:727 JLINK_ReadReg(R0)  returns 0x00000000 (0000ms, 0671ms total)
T1C30 000:727 JLINK_WriteReg(R0, 0x00000000)  returns 0x00 (0000ms, 0671ms total)
T1C30 000:727 JLINK_WriteReg(R1, 0x00000400)  returns 0x00 (0000ms, 0671ms total)
T1C30 000:727 JLINK_WriteReg(R2, 0x000000FF)  returns 0x00 (0000ms, 0671ms total)
T1C30 000:727 JLINK_WriteReg(R3, 0x00000000)  returns 0x00 (0000ms, 0671ms total)
T1C30 000:727 JLINK_WriteReg(R4, 0x00000000)  returns 0x00 (0000ms, 0671ms total)
T1C30 000:727 JLINK_WriteReg(R5, 0x00000000)  returns 0x00 (0000ms, 0671ms total)
T1C30 000:727 JLINK_WriteReg(R6, 0x00000000)  returns 0x00 (0000ms, 0671ms total)
T1C30 000:727 JLINK_WriteReg(R7, 0x00000000)  returns 0x00 (0000ms, 0671ms total)
T1C30 000:727 JLINK_WriteReg(R8, 0x00000000)  returns 0x00 (0000ms, 0671ms total)
T1C30 000:727 JLINK_WriteReg(R9, 0x200001E8)  returns 0x00 (0000ms, 0671ms total)
T1C30 000:727 JLINK_WriteReg(R10, 0x00000000)  returns 0x00 (0000ms, 0671ms total)
T1C30 000:727 JLINK_WriteReg(R11, 0x00000000)  returns 0x00 (0000ms, 0671ms total)
T1C30 000:727 JLINK_WriteReg(R12, 0x00000000)  returns 0x00 (0000ms, 0671ms total)
T1C30 000:727 JLINK_WriteReg(R13 (SP), 0x20002000)  returns 0x00 (0000ms, 0671ms total)
T1C30 000:727 JLINK_WriteReg(R14, 0x20000001)  returns 0x00 (0000ms, 0671ms total)
T1C30 000:727 JLINK_WriteReg(R15 (PC), 0x20000020)  returns 0x00 (0000ms, 0671ms total)
T1C30 000:727 JLINK_WriteReg(XPSR, 0x01000000)  returns 0x00 (0000ms, 0671ms total)
T1C30 000:727 JLINK_WriteReg(MSP, 0x20002000)  returns 0x00 (0000ms, 0671ms total)
T1C30 000:727 JLINK_WriteReg(PSP, 0x20002000)  returns 0x00 (0000ms, 0671ms total)
T1C30 000:727 JLINK_WriteReg(CFBP, 0x00000000)  returns 0x00 (0000ms, 0671ms total)
T1C30 000:727 JLINK_SetBPEx(Addr = 0x20000000, Type = 0xFFFFFFF2)  returns 0x00000002 (0000ms, 0671ms total)
T1C30 000:727 JLINK_Go() -- CPU_ReadMem(4 bytes @ 0xE0001000) -- CPU_WriteMem(4 bytes @ 0xE0001000) (0004ms, 0675ms total)
T1C30 000:731 JLINK_IsHalted() -- CPU_ReadMem(2 bytes @ 0x20000000)  returns TRUE (0006ms, 0681ms total)
T1C30 000:737 JLINK_ReadReg(R15 (PC))  returns 0x20000000 (0000ms, 0675ms total)
T1C30 000:737 JLINK_ClrBPEx(BPHandle = 0x00000002)  returns 0x00 (0000ms, 0675ms total)
T1C30 000:737 JLINK_ReadReg(R0)  returns 0x00000001 (0000ms, 0675ms total)
T1C30 000:737 JLINK_WriteReg(R0, 0x00000000)  returns 0x00 (0000ms, 0675ms total)
T1C30 000:737 JLINK_WriteReg(R1, 0x00000400)  returns 0x00 (0000ms, 0675ms total)
T1C30 000:737 JLINK_WriteReg(R2, 0x000000FF)  returns 0x00 (0000ms, 0675ms total)
T1C30 000:737 JLINK_WriteReg(R3, 0x00000000)  returns 0x00 (0000ms, 0675ms total)
T1C30 000:737 JLINK_WriteReg(R4, 0x00000000)  returns 0x00 (0000ms, 0675ms total)
T1C30 000:737 JLINK_WriteReg(R5, 0x00000000)  returns 0x00 (0000ms, 0675ms total)
T1C30 000:737 JLINK_WriteReg(R6, 0x00000000)  returns 0x00 (0000ms, 0675ms total)
T1C30 000:737 JLINK_WriteReg(R7, 0x00000000)  returns 0x00 (0000ms, 0675ms total)
T1C30 000:737 JLINK_WriteReg(R8, 0x00000000)  returns 0x00 (0000ms, 0675ms total)
T1C30 000:737 JLINK_WriteReg(R9, 0x200001E8)  returns 0x00 (0000ms, 0675ms total)
T1C30 000:737 JLINK_WriteReg(R10, 0x00000000)  returns 0x00 (0000ms, 0675ms total)
T1C30 000:737 JLINK_WriteReg(R11, 0x00000000)  returns 0x00 (0000ms, 0675ms total)
T1C30 000:737 JLINK_WriteReg(R12, 0x00000000)  returns 0x00 (0000ms, 0675ms total)
T1C30 000:737 JLINK_WriteReg(R13 (SP), 0x20002000)  returns 0x00 (0000ms, 0675ms total)
T1C30 000:737 JLINK_WriteReg(R14, 0x20000001)  returns 0x00 (0000ms, 0675ms total)
T1C30 000:737 JLINK_WriteReg(R15 (PC), 0x200000CE)  returns 0x00 (0000ms, 0675ms total)
T1C30 000:737 JLINK_WriteReg(XPSR, 0x01000000)  returns 0x00 (0000ms, 0675ms total)
T1C30 000:737 JLINK_WriteReg(MSP, 0x20002000)  returns 0x00 (0000ms, 0675ms total)
T1C30 000:737 JLINK_WriteReg(PSP, 0x20002000)  returns 0x00 (0000ms, 0675ms total)
T1C30 000:737 JLINK_WriteReg(CFBP, 0x00000000)  returns 0x00 (0000ms, 0675ms total)
T1C30 000:737 JLINK_SetBPEx(Addr = 0x20000000, Type = 0xFFFFFFF2)  returns 0x00000003 (0000ms, 0675ms total)
T1C30 000:737 JLINK_Go() -- CPU_ReadMem(4 bytes @ 0xE0001000) -- CPU_WriteMem(4 bytes @ 0xE0001000) (0004ms, 0679ms total)
T1C30 000:741 JLINK_IsHalted()  returns FALSE (0001ms, 0680ms total)
T1C30 000:856 JLINK_IsHalted() -- CPU_ReadMem(2 bytes @ 0x20000000)  returns TRUE (0005ms, 0684ms total)
T1C30 000:861 JLINK_ReadReg(R15 (PC))  returns 0x20000000 (0000ms, 0679ms total)
T1C30 000:861 JLINK_ClrBPEx(BPHandle = 0x00000003)  returns 0x00 (0000ms, 0679ms total)
T1C30 000:861 JLINK_ReadReg(R0)  returns 0x00000000 (0000ms, 0679ms total)
T1C30 000:862 JLINK_WriteReg(R0, 0x00000400)  returns 0x00 (0000ms, 0679ms total)
T1C30 000:862 JLINK_WriteReg(R1, 0x00000400)  returns 0x00 (0000ms, 0679ms total)
T1C30 000:862 JLINK_WriteReg(R2, 0x000000FF)  returns 0x00 (0000ms, 0679ms total)
T1C30 000:862 JLINK_WriteReg(R3, 0x00000000)  returns 0x00 (0000ms, 0679ms total)
T1C30 000:862 JLINK_WriteReg(R4, 0x00000000)  returns 0x00 (0000ms, 0679ms total)
T1C30 000:862 JLINK_WriteReg(R5, 0x00000000)  returns 0x00 (0000ms, 0679ms total)
T1C30 000:862 JLINK_WriteReg(R6, 0x00000000)  returns 0x00 (0000ms, 0679ms total)
T1C30 000:862 JLINK_WriteReg(R7, 0x00000000)  returns 0x00 (0000ms, 0679ms total)
T1C30 000:862 JLINK_WriteReg(R8, 0x00000000)  returns 0x00 (0000ms, 0679ms total)
T1C30 000:862 JLINK_WriteReg(R9, 0x200001E8)  returns 0x00 (0000ms, 0679ms total)
T1C30 000:862 JLINK_WriteReg(R10, 0x00000000)  returns 0x00 (0000ms, 0679ms total)
T1C30 000:862 JLINK_WriteReg(R11, 0x00000000)  returns 0x00 (0000ms, 0679ms total)
T1C30 000:862 JLINK_WriteReg(R12, 0x00000000)  returns 0x00 (0000ms, 0679ms total)
T1C30 000:862 JLINK_WriteReg(R13 (SP), 0x20002000)  returns 0x00 (0000ms, 0679ms total)
T1C30 000:862 JLINK_WriteReg(R14, 0x20000001)  returns 0x00 (0000ms, 0679ms total)
T1C30 000:862 JLINK_WriteReg(R15 (PC), 0x20000020)  returns 0x00 (0000ms, 0679ms total)
T1C30 000:862 JLINK_WriteReg(XPSR, 0x01000000)  returns 0x00 (0001ms, 0680ms total)
T1C30 000:863 JLINK_WriteReg(MSP, 0x20002000)  returns 0x00 (0000ms, 0680ms total)
T1C30 000:863 JLINK_WriteReg(PSP, 0x20002000)  returns 0x00 (0000ms, 0680ms total)
T1C30 000:863 JLINK_WriteReg(CFBP, 0x00000000)  returns 0x00 (0000ms, 0680ms total)
T1C30 000:863 JLINK_SetBPEx(Addr = 0x20000000, Type = 0xFFFFFFF2)  returns 0x00000004 (0000ms, 0680ms total)
T1C30 000:863 JLINK_Go() -- CPU_ReadMem(4 bytes @ 0xE0001000) -- CPU_WriteMem(4 bytes @ 0xE0001000) (0004ms, 0684ms total)
T1C30 000:867 JLINK_IsHalted() -- CPU_ReadMem(2 bytes @ 0x20000000)  returns TRUE (0006ms, 0690ms total)
T1C30 000:873 JLINK_ReadReg(R15 (PC))  returns 0x20000000 (0000ms, 0684ms total)
T1C30 000:873 JLINK_ClrBPEx(BPHandle = 0x00000004)  returns 0x00 (0000ms, 0684ms total)
T1C30 000:873 JLINK_ReadReg(R0)  returns 0x00000001 (0000ms, 0684ms total)
T1C30 000:873 JLINK_WriteReg(R0, 0x00000400)  returns 0x00 (0000ms, 0684ms total)
T1C30 000:873 JLINK_WriteReg(R1, 0x00000400)  returns 0x00 (0000ms, 0684ms total)
T1C30 000:873 JLINK_WriteReg(R2, 0x000000FF)  returns 0x00 (0000ms, 0684ms total)
T1C30 000:873 JLINK_WriteReg(R3, 0x00000000)  returns 0x00 (0000ms, 0684ms total)
T1C30 000:873 JLINK_WriteReg(R4, 0x00000000)  returns 0x00 (0000ms, 0684ms total)
T1C30 000:873 JLINK_WriteReg(R5, 0x00000000)  returns 0x00 (0000ms, 0684ms total)
T1C30 000:873 JLINK_WriteReg(R6, 0x00000000)  returns 0x00 (0000ms, 0684ms total)
T1C30 000:873 JLINK_WriteReg(R7, 0x00000000)  returns 0x00 (0000ms, 0684ms total)
T1C30 000:873 JLINK_WriteReg(R8, 0x00000000)  returns 0x00 (0000ms, 0684ms total)
T1C30 000:873 JLINK_WriteReg(R9, 0x200001E8)  returns 0x00 (0000ms, 0684ms total)
T1C30 000:873 JLINK_WriteReg(R10, 0x00000000)  returns 0x00 (0000ms, 0684ms total)
T1C30 000:873 JLINK_WriteReg(R11, 0x00000000)  returns 0x00 (0000ms, 0684ms total)
T1C30 000:873 JLINK_WriteReg(R12, 0x00000000)  returns 0x00 (0000ms, 0684ms total)
T1C30 000:873 JLINK_WriteReg(R13 (SP), 0x20002000)  returns 0x00 (0000ms, 0684ms total)
T1C30 000:873 JLINK_WriteReg(R14, 0x20000001)  returns 0x00 (0000ms, 0684ms total)
T1C30 000:873 JLINK_WriteReg(R15 (PC), 0x200000CE)  returns 0x00 (0000ms, 0684ms total)
T1C30 000:873 JLINK_WriteReg(XPSR, 0x01000000)  returns 0x00 (0000ms, 0684ms total)
T1C30 000:873 JLINK_WriteReg(MSP, 0x20002000)  returns 0x00 (0000ms, 0684ms total)
T1C30 000:873 JLINK_WriteReg(PSP, 0x20002000)  returns 0x00 (0000ms, 0684ms total)
T1C30 000:873 JLINK_WriteReg(CFBP, 0x00000000)  returns 0x00 (0000ms, 0684ms total)
T1C30 000:873 JLINK_SetBPEx(Addr = 0x20000000, Type = 0xFFFFFFF2)  returns 0x00000005 (0000ms, 0684ms total)
T1C30 000:873 JLINK_Go() -- CPU_ReadMem(4 bytes @ 0xE0001000) -- CPU_WriteMem(4 bytes @ 0xE0001000) (0004ms, 0688ms total)
T1C30 000:877 JLINK_IsHalted()  returns FALSE (0001ms, 0689ms total)
T1C30 000:930 JLINK_IsHalted() -- CPU_ReadMem(2 bytes @ 0x20000000)  returns TRUE (0005ms, 0693ms total)
T1C30 000:935 JLINK_ReadReg(R15 (PC))  returns 0x20000000 (0000ms, 0688ms total)
T1C30 000:935 JLINK_ClrBPEx(BPHandle = 0x00000005)  returns 0x00 (0000ms, 0688ms total)
T1C30 000:935 JLINK_ReadReg(R0)  returns 0x00000000 (0000ms, 0688ms total)
T1C30 000:936 JLINK_WriteReg(R0, 0x00000800)  returns 0x00 (0000ms, 0688ms total)
T1C30 000:936 JLINK_WriteReg(R1, 0x00000400)  returns 0x00 (0000ms, 0688ms total)
T1C30 000:936 JLINK_WriteReg(R2, 0x000000FF)  returns 0x00 (0000ms, 0688ms total)
T1C30 000:936 JLINK_WriteReg(R3, 0x00000000)  returns 0x00 (0000ms, 0688ms total)
T1C30 000:936 JLINK_WriteReg(R4, 0x00000000)  returns 0x00 (0000ms, 0688ms total)
T1C30 000:936 JLINK_WriteReg(R5, 0x00000000)  returns 0x00 (0000ms, 0688ms total)
T1C30 000:936 JLINK_WriteReg(R6, 0x00000000)  returns 0x00 (0000ms, 0688ms total)
T1C30 000:936 JLINK_WriteReg(R7, 0x00000000)  returns 0x00 (0000ms, 0688ms total)
T1C30 000:936 JLINK_WriteReg(R8, 0x00000000)  returns 0x00 (0000ms, 0688ms total)
T1C30 000:936 JLINK_WriteReg(R9, 0x200001E8)  returns 0x00 (0000ms, 0688ms total)
T1C30 000:936 JLINK_WriteReg(R10, 0x00000000)  returns 0x00 (0000ms, 0688ms total)
T1C30 000:936 JLINK_WriteReg(R11, 0x00000000)  returns 0x00 (0000ms, 0688ms total)
T1C30 000:936 JLINK_WriteReg(R12, 0x00000000)  returns 0x00 (0000ms, 0688ms total)
T1C30 000:936 JLINK_WriteReg(R13 (SP), 0x20002000)  returns 0x00 (0000ms, 0688ms total)
T1C30 000:936 JLINK_WriteReg(R14, 0x20000001)  returns 0x00 (0000ms, 0688ms total)
T1C30 000:936 JLINK_WriteReg(R15 (PC), 0x20000020)  returns 0x00 (0000ms, 0688ms total)
T1C30 000:936 JLINK_WriteReg(XPSR, 0x01000000)  returns 0x00 (0000ms, 0688ms total)
T1C30 000:936 JLINK_WriteReg(MSP, 0x20002000)  returns 0x00 (0000ms, 0688ms total)
T1C30 000:936 JLINK_WriteReg(PSP, 0x20002000)  returns 0x00 (0000ms, 0688ms total)
T1C30 000:936 JLINK_WriteReg(CFBP, 0x00000000)  returns 0x00 (0000ms, 0688ms total)
T1C30 000:936 JLINK_SetBPEx(Addr = 0x20000000, Type = 0xFFFFFFF2)  returns 0x00000006 (0000ms, 0688ms total)
T1C30 000:936 JLINK_Go() -- CPU_ReadMem(4 bytes @ 0xE0001000) -- CPU_WriteMem(4 bytes @ 0xE0001000) (0004ms, 0692ms total)
T1C30 000:940 JLINK_IsHalted() -- CPU_ReadMem(2 bytes @ 0x20000000)  returns TRUE (0006ms, 0698ms total)
T1C30 000:946 JLINK_ReadReg(R15 (PC))  returns 0x20000000 (0000ms, 0692ms total)
T1C30 000:946 JLINK_ClrBPEx(BPHandle = 0x00000006)  returns 0x00 (0000ms, 0692ms total)
T1C30 000:946 JLINK_ReadReg(R0)  returns 0x00000001 (0000ms, 0692ms total)
T1C30 000:946 JLINK_WriteReg(R0, 0x00000800)  returns 0x00 (0000ms, 0692ms total)
T1C30 000:946 JLINK_WriteReg(R1, 0x00000400)  returns 0x00 (0000ms, 0692ms total)
T1C30 000:946 JLINK_WriteReg(R2, 0x000000FF)  returns 0x00 (0000ms, 0692ms total)
T1C30 000:946 JLINK_WriteReg(R3, 0x00000000)  returns 0x00 (0000ms, 0692ms total)
T1C30 000:946 JLINK_WriteReg(R4, 0x00000000)  returns 0x00 (0000ms, 0692ms total)
T1C30 000:946 JLINK_WriteReg(R5, 0x00000000)  returns 0x00 (0000ms, 0692ms total)
T1C30 000:946 JLINK_WriteReg(R6, 0x00000000)  returns 0x00 (0000ms, 0692ms total)
T1C30 000:946 JLINK_WriteReg(R7, 0x00000000)  returns 0x00 (0000ms, 0692ms total)
T1C30 000:946 JLINK_WriteReg(R8, 0x00000000)  returns 0x00 (0000ms, 0692ms total)
T1C30 000:946 JLINK_WriteReg(R9, 0x200001E8)  returns 0x00 (0000ms, 0692ms total)
T1C30 000:946 JLINK_WriteReg(R10, 0x00000000)  returns 0x00 (0000ms, 0692ms total)
T1C30 000:946 JLINK_WriteReg(R11, 0x00000000)  returns 0x00 (0000ms, 0692ms total)
T1C30 000:946 JLINK_WriteReg(R12, 0x00000000)  returns 0x00 (0000ms, 0692ms total)
T1C30 000:946 JLINK_WriteReg(R13 (SP), 0x20002000)  returns 0x00 (0000ms, 0692ms total)
T1C30 000:946 JLINK_WriteReg(R14, 0x20000001)  returns 0x00 (0000ms, 0692ms total)
T1C30 000:946 JLINK_WriteReg(R15 (PC), 0x200000CE)  returns 0x00 (0000ms, 0692ms total)
T1C30 000:946 JLINK_WriteReg(XPSR, 0x01000000)  returns 0x00 (0000ms, 0692ms total)
T1C30 000:946 JLINK_WriteReg(MSP, 0x20002000)  returns 0x00 (0000ms, 0692ms total)
T1C30 000:946 JLINK_WriteReg(PSP, 0x20002000)  returns 0x00 (0000ms, 0692ms total)
T1C30 000:946 JLINK_WriteReg(CFBP, 0x00000000)  returns 0x00 (0000ms, 0692ms total)
T1C30 000:946 JLINK_SetBPEx(Addr = 0x20000000, Type = 0xFFFFFFF2)  returns 0x00000007 (0000ms, 0692ms total)
T1C30 000:946 JLINK_Go() -- CPU_ReadMem(4 bytes @ 0xE0001000) -- CPU_WriteMem(4 bytes @ 0xE0001000) (0004ms, 0696ms total)
T1C30 000:950 JLINK_IsHalted()  returns FALSE (0001ms, 0697ms total)
T1C30 000:952 JLINK_IsHalted() -- CPU_ReadMem(2 bytes @ 0x20000000)  returns TRUE (0005ms, 0701ms total)
T1C30 000:957 JLINK_ReadReg(R15 (PC))  returns 0x20000000 (0000ms, 0696ms total)
T1C30 000:957 JLINK_ClrBPEx(BPHandle = 0x00000007)  returns 0x00 (0000ms, 0696ms total)
T1C30 000:957 JLINK_ReadReg(R0)  returns 0x00000000 (0000ms, 0696ms total)
T1C30 000:957 JLINK_WriteReg(R0, 0x00000C00)  returns 0x00 (0001ms, 0697ms total)
T1C30 000:958 JLINK_WriteReg(R1, 0x00000400)  returns 0x00 (0000ms, 0697ms total)
T1C30 000:958 JLINK_WriteReg(R2, 0x000000FF)  returns 0x00 (0000ms, 0697ms total)
T1C30 000:958 JLINK_WriteReg(R3, 0x00000000)  returns 0x00 (0000ms, 0697ms total)
T1C30 000:958 JLINK_WriteReg(R4, 0x00000000)  returns 0x00 (0000ms, 0697ms total)
T1C30 000:958 JLINK_WriteReg(R5, 0x00000000)  returns 0x00 (0000ms, 0697ms total)
T1C30 000:958 JLINK_WriteReg(R6, 0x00000000)  returns 0x00 (0000ms, 0697ms total)
T1C30 000:958 JLINK_WriteReg(R7, 0x00000000)  returns 0x00 (0000ms, 0697ms total)
T1C30 000:958 JLINK_WriteReg(R8, 0x00000000)  returns 0x00 (0000ms, 0697ms total)
T1C30 000:958 JLINK_WriteReg(R9, 0x200001E8)  returns 0x00 (0000ms, 0697ms total)
T1C30 000:958 JLINK_WriteReg(R10, 0x00000000)  returns 0x00 (0000ms, 0697ms total)
T1C30 000:958 JLINK_WriteReg(R11, 0x00000000)  returns 0x00 (0000ms, 0697ms total)
T1C30 000:958 JLINK_WriteReg(R12, 0x00000000)  returns 0x00 (0000ms, 0697ms total)
T1C30 000:958 JLINK_WriteReg(R13 (SP), 0x20002000)  returns 0x00 (0000ms, 0697ms total)
T1C30 000:958 JLINK_WriteReg(R14, 0x20000001)  returns 0x00 (0000ms, 0697ms total)
T1C30 000:958 JLINK_WriteReg(R15 (PC), 0x20000020)  returns 0x00 (0000ms, 0697ms total)
T1C30 000:958 JLINK_WriteReg(XPSR, 0x01000000)  returns 0x00 (0000ms, 0697ms total)
T1C30 000:958 JLINK_WriteReg(MSP, 0x20002000)  returns 0x00 (0000ms, 0697ms total)
T1C30 000:958 JLINK_WriteReg(PSP, 0x20002000)  returns 0x00 (0000ms, 0697ms total)
T1C30 000:958 JLINK_WriteReg(CFBP, 0x00000000)  returns 0x00 (0000ms, 0697ms total)
T1C30 000:958 JLINK_SetBPEx(Addr = 0x20000000, Type = 0xFFFFFFF2)  returns 0x00000008 (0000ms, 0697ms total)
T1C30 000:958 JLINK_Go() -- CPU_ReadMem(4 bytes @ 0xE0001000) -- CPU_WriteMem(4 bytes @ 0xE0001000) (0004ms, 0701ms total)
T1C30 000:962 JLINK_IsHalted() -- CPU_ReadMem(2 bytes @ 0x20000000)  returns TRUE (0006ms, 0707ms total)
T1C30 000:968 JLINK_ReadReg(R15 (PC))  returns 0x20000000 (0000ms, 0701ms total)
T1C30 000:968 JLINK_ClrBPEx(BPHandle = 0x00000008)  returns 0x00 (0000ms, 0701ms total)
T1C30 000:968 JLINK_ReadReg(R0)  returns 0x00000001 (0000ms, 0701ms total)
T1C30 000:968 JLINK_WriteReg(R0, 0x00000C00)  returns 0x00 (0000ms, 0701ms total)
T1C30 000:968 JLINK_WriteReg(R1, 0x00000400)  returns 0x00 (0000ms, 0701ms total)
T1C30 000:968 JLINK_WriteReg(R2, 0x000000FF)  returns 0x00 (0000ms, 0701ms total)
T1C30 000:968 JLINK_WriteReg(R3, 0x00000000)  returns 0x00 (0000ms, 0701ms total)
T1C30 000:968 JLINK_WriteReg(R4, 0x00000000)  returns 0x00 (0000ms, 0701ms total)
T1C30 000:968 JLINK_WriteReg(R5, 0x00000000)  returns 0x00 (0000ms, 0701ms total)
T1C30 000:968 JLINK_WriteReg(R6, 0x00000000)  returns 0x00 (0000ms, 0701ms total)
T1C30 000:968 JLINK_WriteReg(R7, 0x00000000)  returns 0x00 (0000ms, 0701ms total)
T1C30 000:968 JLINK_WriteReg(R8, 0x00000000)  returns 0x00 (0000ms, 0701ms total)
T1C30 000:968 JLINK_WriteReg(R9, 0x200001E8)  returns 0x00 (0000ms, 0701ms total)
T1C30 000:968 JLINK_WriteReg(R10, 0x00000000)  returns 0x00 (0000ms, 0701ms total)
T1C30 000:968 JLINK_WriteReg(R11, 0x00000000)  returns 0x00 (0000ms, 0701ms total)
T1C30 000:968 JLINK_WriteReg(R12, 0x00000000)  returns 0x00 (0000ms, 0701ms total)
T1C30 000:968 JLINK_WriteReg(R13 (SP), 0x20002000)  returns 0x00 (0000ms, 0701ms total)
T1C30 000:968 JLINK_WriteReg(R14, 0x20000001)  returns 0x00 (0000ms, 0701ms total)
T1C30 000:968 JLINK_WriteReg(R15 (PC), 0x200000CE)  returns 0x00 (0000ms, 0701ms total)
T1C30 000:968 JLINK_WriteReg(XPSR, 0x01000000)  returns 0x00 (0000ms, 0701ms total)
T1C30 000:968 JLINK_WriteReg(MSP, 0x20002000)  returns 0x00 (0000ms, 0701ms total)
T1C30 000:968 JLINK_WriteReg(PSP, 0x20002000)  returns 0x00 (0000ms, 0701ms total)
T1C30 000:968 JLINK_WriteReg(CFBP, 0x00000000)  returns 0x00 (0000ms, 0701ms total)
T1C30 000:968 JLINK_SetBPEx(Addr = 0x20000000, Type = 0xFFFFFFF2)  returns 0x00000009 (0000ms, 0701ms total)
T1C30 000:968 JLINK_Go() -- CPU_ReadMem(4 bytes @ 0xE0001000) -- CPU_WriteMem(4 bytes @ 0xE0001000) (0004ms, 0705ms total)
T1C30 000:972 JLINK_IsHalted()  returns FALSE (0001ms, 0706ms total)
T1C30 001:006 JLINK_IsHalted() -- CPU_ReadMem(2 bytes @ 0x20000000)  returns TRUE (0005ms, 0710ms total)
T1C30 001:011 JLINK_ReadReg(R15 (PC))  returns 0x20000000 (0000ms, 0705ms total)
T1C30 001:011 JLINK_ClrBPEx(BPHandle = 0x00000009)  returns 0x00 (0000ms, 0705ms total)
T1C30 001:011 JLINK_ReadReg(R0)  returns 0x00000000 (0000ms, 0705ms total)
T1C30 001:012 JLINK_WriteReg(R0, 0x00001000)  returns 0x00 (0000ms, 0705ms total)
T1C30 001:012 JLINK_WriteReg(R1, 0x00000400)  returns 0x00 (0000ms, 0705ms total)
T1C30 001:012 JLINK_WriteReg(R2, 0x000000FF)  returns 0x00 (0000ms, 0705ms total)
T1C30 001:012 JLINK_WriteReg(R3, 0x00000000)  returns 0x00 (0000ms, 0705ms total)
T1C30 001:012 JLINK_WriteReg(R4, 0x00000000)  returns 0x00 (0000ms, 0705ms total)
T1C30 001:012 JLINK_WriteReg(R5, 0x00000000)  returns 0x00 (0000ms, 0705ms total)
T1C30 001:012 JLINK_WriteReg(R6, 0x00000000)  returns 0x00 (0000ms, 0705ms total)
T1C30 001:012 JLINK_WriteReg(R7, 0x00000000)  returns 0x00 (0000ms, 0705ms total)
T1C30 001:012 JLINK_WriteReg(R8, 0x00000000)  returns 0x00 (0000ms, 0705ms total)
T1C30 001:012 JLINK_WriteReg(R9, 0x200001E8)  returns 0x00 (0000ms, 0705ms total)
T1C30 001:012 JLINK_WriteReg(R10, 0x00000000)  returns 0x00 (0000ms, 0705ms total)
T1C30 001:012 JLINK_WriteReg(R11, 0x00000000)  returns 0x00 (0000ms, 0705ms total)
T1C30 001:012 JLINK_WriteReg(R12, 0x00000000)  returns 0x00 (0000ms, 0705ms total)
T1C30 001:012 JLINK_WriteReg(R13 (SP), 0x20002000)  returns 0x00 (0000ms, 0705ms total)
T1C30 001:012 JLINK_WriteReg(R14, 0x20000001)  returns 0x00 (0000ms, 0705ms total)
T1C30 001:012 JLINK_WriteReg(R15 (PC), 0x20000020)  returns 0x00 (0000ms, 0705ms total)
T1C30 001:012 JLINK_WriteReg(XPSR, 0x01000000)  returns 0x00 (0000ms, 0705ms total)
T1C30 001:012 JLINK_WriteReg(MSP, 0x20002000)  returns 0x00 (0000ms, 0705ms total)
T1C30 001:012 JLINK_WriteReg(PSP, 0x20002000)  returns 0x00 (0000ms, 0705ms total)
T1C30 001:012 JLINK_WriteReg(CFBP, 0x00000000)  returns 0x00 (0000ms, 0705ms total)
T1C30 001:012 JLINK_SetBPEx(Addr = 0x20000000, Type = 0xFFFFFFF2)  returns 0x0000000A (0000ms, 0705ms total)
T1C30 001:012 JLINK_Go() -- CPU_ReadMem(4 bytes @ 0xE0001000) -- CPU_WriteMem(4 bytes @ 0xE0001000) (0004ms, 0709ms total)
T1C30 001:016 JLINK_IsHalted() -- CPU_ReadMem(2 bytes @ 0x20000000)  returns TRUE (0006ms, 0715ms total)
T1C30 001:022 JLINK_ReadReg(R15 (PC))  returns 0x20000000 (0000ms, 0709ms total)
T1C30 001:022 JLINK_ClrBPEx(BPHandle = 0x0000000A)  returns 0x00 (0000ms, 0709ms total)
T1C30 001:022 JLINK_ReadReg(R0)  returns 0x00000001 (0000ms, 0709ms total)
T1C30 001:022 JLINK_WriteReg(R0, 0x00001000)  returns 0x00 (0000ms, 0709ms total)
T1C30 001:022 JLINK_WriteReg(R1, 0x00000400)  returns 0x00 (0000ms, 0709ms total)
T1C30 001:022 JLINK_WriteReg(R2, 0x000000FF)  returns 0x00 (0000ms, 0709ms total)
T1C30 001:022 JLINK_WriteReg(R3, 0x00000000)  returns 0x00 (0000ms, 0709ms total)
T1C30 001:022 JLINK_WriteReg(R4, 0x00000000)  returns 0x00 (0000ms, 0709ms total)
T1C30 001:022 JLINK_WriteReg(R5, 0x00000000)  returns 0x00 (0000ms, 0709ms total)
T1C30 001:022 JLINK_WriteReg(R6, 0x00000000)  returns 0x00 (0000ms, 0709ms total)
T1C30 001:022 JLINK_WriteReg(R7, 0x00000000)  returns 0x00 (0000ms, 0709ms total)
T1C30 001:022 JLINK_WriteReg(R8, 0x00000000)  returns 0x00 (0000ms, 0709ms total)
T1C30 001:022 JLINK_WriteReg(R9, 0x200001E8)  returns 0x00 (0000ms, 0709ms total)
T1C30 001:022 JLINK_WriteReg(R10, 0x00000000)  returns 0x00 (0000ms, 0709ms total)
T1C30 001:022 JLINK_WriteReg(R11, 0x00000000)  returns 0x00 (0000ms, 0709ms total)
T1C30 001:022 JLINK_WriteReg(R12, 0x00000000)  returns 0x00 (0000ms, 0709ms total)
T1C30 001:022 JLINK_WriteReg(R13 (SP), 0x20002000)  returns 0x00 (0000ms, 0709ms total)
T1C30 001:022 JLINK_WriteReg(R14, 0x20000001)  returns 0x00 (0000ms, 0709ms total)
T1C30 001:022 JLINK_WriteReg(R15 (PC), 0x200000CE)  returns 0x00 (0000ms, 0709ms total)
T1C30 001:022 JLINK_WriteReg(XPSR, 0x01000000)  returns 0x00 (0000ms, 0709ms total)
T1C30 001:022 JLINK_WriteReg(MSP, 0x20002000)  returns 0x00 (0000ms, 0709ms total)
T1C30 001:022 JLINK_WriteReg(PSP, 0x20002000)  returns 0x00 (0000ms, 0709ms total)
T1C30 001:022 JLINK_WriteReg(CFBP, 0x00000000)  returns 0x00 (0000ms, 0709ms total)
T1C30 001:022 JLINK_SetBPEx(Addr = 0x20000000, Type = 0xFFFFFFF2)  returns 0x0000000B (0000ms, 0709ms total)
T1C30 001:023 JLINK_Go() -- CPU_ReadMem(4 bytes @ 0xE0001000) -- CPU_WriteMem(4 bytes @ 0xE0001000) (0003ms, 0713ms total)
T1C30 001:026 JLINK_IsHalted()  returns FALSE (0001ms, 0714ms total)
T1C30 001:047 JLINK_IsHalted() -- CPU_ReadMem(2 bytes @ 0x20000000)  returns TRUE (0005ms, 0718ms total)
T1C30 001:052 JLINK_ReadReg(R15 (PC))  returns 0x20000000 (0000ms, 0713ms total)
T1C30 001:052 JLINK_ClrBPEx(BPHandle = 0x0000000B)  returns 0x00 (0000ms, 0713ms total)
T1C30 001:052 JLINK_ReadReg(R0)  returns 0x00000000 (0000ms, 0713ms total)
T1C30 001:053 JLINK_WriteReg(R0, 0x00001400)  returns 0x00 (0000ms, 0713ms total)
T1C30 001:053 JLINK_WriteReg(R1, 0x00000400)  returns 0x00 (0000ms, 0713ms total)
T1C30 001:053 JLINK_WriteReg(R2, 0x000000FF)  returns 0x00 (0000ms, 0713ms total)
T1C30 001:053 JLINK_WriteReg(R3, 0x00000000)  returns 0x00 (0000ms, 0713ms total)
T1C30 001:053 JLINK_WriteReg(R4, 0x00000000)  returns 0x00 (0000ms, 0713ms total)
T1C30 001:053 JLINK_WriteReg(R5, 0x00000000)  returns 0x00 (0000ms, 0713ms total)
T1C30 001:053 JLINK_WriteReg(R6, 0x00000000)  returns 0x00 (0000ms, 0713ms total)
T1C30 001:053 JLINK_WriteReg(R7, 0x00000000)  returns 0x00 (0000ms, 0713ms total)
T1C30 001:053 JLINK_WriteReg(R8, 0x00000000)  returns 0x00 (0000ms, 0713ms total)
T1C30 001:053 JLINK_WriteReg(R9, 0x200001E8)  returns 0x00 (0000ms, 0713ms total)
T1C30 001:053 JLINK_WriteReg(R10, 0x00000000)  returns 0x00 (0000ms, 0713ms total)
T1C30 001:053 JLINK_WriteReg(R11, 0x00000000)  returns 0x00 (0000ms, 0713ms total)
T1C30 001:053 JLINK_WriteReg(R12, 0x00000000)  returns 0x00 (0000ms, 0713ms total)
T1C30 001:053 JLINK_WriteReg(R13 (SP), 0x20002000)  returns 0x00 (0000ms, 0713ms total)
T1C30 001:053 JLINK_WriteReg(R14, 0x20000001)  returns 0x00 (0000ms, 0713ms total)
T1C30 001:053 JLINK_WriteReg(R15 (PC), 0x20000020)  returns 0x00 (0000ms, 0713ms total)
T1C30 001:053 JLINK_WriteReg(XPSR, 0x01000000)  returns 0x00 (0000ms, 0713ms total)
T1C30 001:053 JLINK_WriteReg(MSP, 0x20002000)  returns 0x00 (0000ms, 0713ms total)
T1C30 001:053 JLINK_WriteReg(PSP, 0x20002000)  returns 0x00 (0000ms, 0713ms total)
T1C30 001:053 JLINK_WriteReg(CFBP, 0x00000000)  returns 0x00 (0000ms, 0713ms total)
T1C30 001:053 JLINK_SetBPEx(Addr = 0x20000000, Type = 0xFFFFFFF2)  returns 0x0000000C (0000ms, 0713ms total)
T1C30 001:053 JLINK_Go() -- CPU_ReadMem(4 bytes @ 0xE0001000) -- CPU_WriteMem(4 bytes @ 0xE0001000) (0004ms, 0717ms total)
T1C30 001:057 JLINK_IsHalted() -- CPU_ReadMem(2 bytes @ 0x20000000)  returns TRUE (0006ms, 0723ms total)
T1C30 001:063 JLINK_ReadReg(R15 (PC))  returns 0x20000000 (0000ms, 0717ms total)
T1C30 001:063 JLINK_ClrBPEx(BPHandle = 0x0000000C)  returns 0x00 (0000ms, 0717ms total)
T1C30 001:063 JLINK_ReadReg(R0)  returns 0x00000001 (0000ms, 0717ms total)
T1C30 001:063 JLINK_WriteReg(R0, 0x00001400)  returns 0x00 (0000ms, 0717ms total)
T1C30 001:063 JLINK_WriteReg(R1, 0x00000400)  returns 0x00 (0000ms, 0717ms total)
T1C30 001:063 JLINK_WriteReg(R2, 0x000000FF)  returns 0x00 (0000ms, 0717ms total)
T1C30 001:063 JLINK_WriteReg(R3, 0x00000000)  returns 0x00 (0000ms, 0717ms total)
T1C30 001:063 JLINK_WriteReg(R4, 0x00000000)  returns 0x00 (0000ms, 0717ms total)
T1C30 001:063 JLINK_WriteReg(R5, 0x00000000)  returns 0x00 (0000ms, 0717ms total)
T1C30 001:063 JLINK_WriteReg(R6, 0x00000000)  returns 0x00 (0000ms, 0717ms total)
T1C30 001:063 JLINK_WriteReg(R7, 0x00000000)  returns 0x00 (0000ms, 0717ms total)
T1C30 001:063 JLINK_WriteReg(R8, 0x00000000)  returns 0x00 (0000ms, 0717ms total)
T1C30 001:063 JLINK_WriteReg(R9, 0x200001E8)  returns 0x00 (0000ms, 0717ms total)
T1C30 001:063 JLINK_WriteReg(R10, 0x00000000)  returns 0x00 (0000ms, 0717ms total)
T1C30 001:063 JLINK_WriteReg(R11, 0x00000000)  returns 0x00 (0000ms, 0717ms total)
T1C30 001:063 JLINK_WriteReg(R12, 0x00000000)  returns 0x00 (0000ms, 0717ms total)
T1C30 001:063 JLINK_WriteReg(R13 (SP), 0x20002000)  returns 0x00 (0000ms, 0717ms total)
T1C30 001:063 JLINK_WriteReg(R14, 0x20000001)  returns 0x00 (0000ms, 0717ms total)
T1C30 001:063 JLINK_WriteReg(R15 (PC), 0x200000CE)  returns 0x00 (0000ms, 0717ms total)
T1C30 001:063 JLINK_WriteReg(XPSR, 0x01000000)  returns 0x00 (0000ms, 0717ms total)
T1C30 001:063 JLINK_WriteReg(MSP, 0x20002000)  returns 0x00 (0000ms, 0717ms total)
T1C30 001:063 JLINK_WriteReg(PSP, 0x20002000)  returns 0x00 (0000ms, 0717ms total)
T1C30 001:063 JLINK_WriteReg(CFBP, 0x00000000)  returns 0x00 (0000ms, 0717ms total)
T1C30 001:063 JLINK_SetBPEx(Addr = 0x20000000, Type = 0xFFFFFFF2)  returns 0x0000000D (0000ms, 0717ms total)
T1C30 001:063 JLINK_Go() -- CPU_ReadMem(4 bytes @ 0xE0001000) -- CPU_WriteMem(4 bytes @ 0xE0001000) (0004ms, 0721ms total)
T1C30 001:067 JLINK_IsHalted()  returns FALSE (0001ms, 0722ms total)
T1C30 001:069 JLINK_IsHalted() -- CPU_ReadMem(2 bytes @ 0x20000000)  returns TRUE (0005ms, 0726ms total)
T1C30 001:074 JLINK_ReadReg(R15 (PC))  returns 0x20000000 (0000ms, 0721ms total)
T1C30 001:074 JLINK_ClrBPEx(BPHandle = 0x0000000D)  returns 0x00 (0000ms, 0721ms total)
T1C30 001:074 JLINK_ReadReg(R0)  returns 0x00000000 (0000ms, 0721ms total)
T1C30 001:074 JLINK_WriteReg(R0, 0x00001800)  returns 0x00 (0000ms, 0721ms total)
T1C30 001:074 JLINK_WriteReg(R1, 0x00000400)  returns 0x00 (0001ms, 0722ms total)
T1C30 001:075 JLINK_WriteReg(R2, 0x000000FF)  returns 0x00 (0000ms, 0722ms total)
T1C30 001:075 JLINK_WriteReg(R3, 0x00000000)  returns 0x00 (0000ms, 0722ms total)
T1C30 001:075 JLINK_WriteReg(R4, 0x00000000)  returns 0x00 (0000ms, 0722ms total)
T1C30 001:075 JLINK_WriteReg(R5, 0x00000000)  returns 0x00 (0000ms, 0722ms total)
T1C30 001:075 JLINK_WriteReg(R6, 0x00000000)  returns 0x00 (0000ms, 0722ms total)
T1C30 001:075 JLINK_WriteReg(R7, 0x00000000)  returns 0x00 (0000ms, 0722ms total)
T1C30 001:075 JLINK_WriteReg(R8, 0x00000000)  returns 0x00 (0000ms, 0722ms total)
T1C30 001:075 JLINK_WriteReg(R9, 0x200001E8)  returns 0x00 (0000ms, 0722ms total)
T1C30 001:075 JLINK_WriteReg(R10, 0x00000000)  returns 0x00 (0000ms, 0722ms total)
T1C30 001:075 JLINK_WriteReg(R11, 0x00000000)  returns 0x00 (0000ms, 0722ms total)
T1C30 001:075 JLINK_WriteReg(R12, 0x00000000)  returns 0x00 (0000ms, 0722ms total)
T1C30 001:075 JLINK_WriteReg(R13 (SP), 0x20002000)  returns 0x00 (0000ms, 0722ms total)
T1C30 001:075 JLINK_WriteReg(R14, 0x20000001)  returns 0x00 (0000ms, 0722ms total)
T1C30 001:075 JLINK_WriteReg(R15 (PC), 0x20000020)  returns 0x00 (0000ms, 0722ms total)
T1C30 001:075 JLINK_WriteReg(XPSR, 0x01000000)  returns 0x00 (0000ms, 0722ms total)
T1C30 001:075 JLINK_WriteReg(MSP, 0x20002000)  returns 0x00 (0000ms, 0722ms total)
T1C30 001:075 JLINK_WriteReg(PSP, 0x20002000)  returns 0x00 (0000ms, 0722ms total)
T1C30 001:075 JLINK_WriteReg(CFBP, 0x00000000)  returns 0x00 (0000ms, 0722ms total)
T1C30 001:075 JLINK_SetBPEx(Addr = 0x20000000, Type = 0xFFFFFFF2)  returns 0x0000000E (0000ms, 0722ms total)
T1C30 001:075 JLINK_Go() -- CPU_ReadMem(4 bytes @ 0xE0001000) -- CPU_WriteMem(4 bytes @ 0xE0001000) (0004ms, 0726ms total)
T1C30 001:079 JLINK_IsHalted() -- CPU_ReadMem(2 bytes @ 0x20000000)  returns TRUE (0005ms, 0731ms total)
T1C30 001:084 JLINK_ReadReg(R15 (PC))  returns 0x20000000 (0000ms, 0726ms total)
T1C30 001:084 JLINK_ClrBPEx(BPHandle = 0x0000000E)  returns 0x00 (0000ms, 0726ms total)
T1C30 001:084 JLINK_ReadReg(R0)  returns 0x00000001 (0000ms, 0726ms total)
T1C30 001:084 JLINK_WriteReg(R0, 0x00001800)  returns 0x00 (0001ms, 0727ms total)
T1C30 001:085 JLINK_WriteReg(R1, 0x00000400)  returns 0x00 (0000ms, 0727ms total)
T1C30 001:085 JLINK_WriteReg(R2, 0x000000FF)  returns 0x00 (0000ms, 0727ms total)
T1C30 001:085 JLINK_WriteReg(R3, 0x00000000)  returns 0x00 (0000ms, 0727ms total)
T1C30 001:085 JLINK_WriteReg(R4, 0x00000000)  returns 0x00 (0000ms, 0727ms total)
T1C30 001:085 JLINK_WriteReg(R5, 0x00000000)  returns 0x00 (0000ms, 0727ms total)
T1C30 001:085 JLINK_WriteReg(R6, 0x00000000)  returns 0x00 (0000ms, 0727ms total)
T1C30 001:085 JLINK_WriteReg(R7, 0x00000000)  returns 0x00 (0000ms, 0727ms total)
T1C30 001:085 JLINK_WriteReg(R8, 0x00000000)  returns 0x00 (0000ms, 0727ms total)
T1C30 001:085 JLINK_WriteReg(R9, 0x200001E8)  returns 0x00 (0000ms, 0727ms total)
T1C30 001:085 JLINK_WriteReg(R10, 0x00000000)  returns 0x00 (0000ms, 0727ms total)
T1C30 001:085 JLINK_WriteReg(R11, 0x00000000)  returns 0x00 (0000ms, 0727ms total)
T1C30 001:085 JLINK_WriteReg(R12, 0x00000000)  returns 0x00 (0000ms, 0727ms total)
T1C30 001:085 JLINK_WriteReg(R13 (SP), 0x20002000)  returns 0x00 (0000ms, 0727ms total)
T1C30 001:085 JLINK_WriteReg(R14, 0x20000001)  returns 0x00 (0000ms, 0727ms total)
T1C30 001:085 JLINK_WriteReg(R15 (PC), 0x200000CE)  returns 0x00 (0000ms, 0727ms total)
T1C30 001:085 JLINK_WriteReg(XPSR, 0x01000000)  returns 0x00 (0000ms, 0727ms total)
T1C30 001:085 JLINK_WriteReg(MSP, 0x20002000)  returns 0x00 (0000ms, 0727ms total)
T1C30 001:085 JLINK_WriteReg(PSP, 0x20002000)  returns 0x00 (0000ms, 0727ms total)
T1C30 001:085 JLINK_WriteReg(CFBP, 0x00000000)  returns 0x00 (0000ms, 0727ms total)
T1C30 001:085 JLINK_SetBPEx(Addr = 0x20000000, Type = 0xFFFFFFF2)  returns 0x0000000F (0000ms, 0727ms total)
T1C30 001:085 JLINK_Go() -- CPU_ReadMem(4 bytes @ 0xE0001000) -- CPU_WriteMem(4 bytes @ 0xE0001000) (0004ms, 0731ms total)
T1C30 001:089 JLINK_IsHalted()  returns FALSE (0001ms, 0732ms total)
T1C30 001:144 JLINK_IsHalted() -- CPU_ReadMem(2 bytes @ 0x20000000)  returns TRUE (0005ms, 0736ms total)
T1C30 001:149 JLINK_ReadReg(R15 (PC))  returns 0x20000000 (0000ms, 0731ms total)
T1C30 001:149 JLINK_ClrBPEx(BPHandle = 0x0000000F)  returns 0x00 (0000ms, 0731ms total)
T1C30 001:149 JLINK_ReadReg(R0)  returns 0x00000000 (0000ms, 0731ms total)
T1C30 001:150 JLINK_WriteReg(R0, 0x00001C00)  returns 0x00 (0000ms, 0731ms total)
T1C30 001:150 JLINK_WriteReg(R1, 0x00000400)  returns 0x00 (0000ms, 0731ms total)
T1C30 001:150 JLINK_WriteReg(R2, 0x000000FF)  returns 0x00 (0000ms, 0731ms total)
T1C30 001:150 JLINK_WriteReg(R3, 0x00000000)  returns 0x00 (0000ms, 0731ms total)
T1C30 001:150 JLINK_WriteReg(R4, 0x00000000)  returns 0x00 (0000ms, 0731ms total)
T1C30 001:150 JLINK_WriteReg(R5, 0x00000000)  returns 0x00 (0000ms, 0731ms total)
T1C30 001:150 JLINK_WriteReg(R6, 0x00000000)  returns 0x00 (0000ms, 0731ms total)
T1C30 001:150 JLINK_WriteReg(R7, 0x00000000)  returns 0x00 (0000ms, 0731ms total)
T1C30 001:150 JLINK_WriteReg(R8, 0x00000000)  returns 0x00 (0000ms, 0731ms total)
T1C30 001:150 JLINK_WriteReg(R9, 0x200001E8)  returns 0x00 (0000ms, 0731ms total)
T1C30 001:150 JLINK_WriteReg(R10, 0x00000000)  returns 0x00 (0000ms, 0731ms total)
T1C30 001:150 JLINK_WriteReg(R11, 0x00000000)  returns 0x00 (0000ms, 0731ms total)
T1C30 001:150 JLINK_WriteReg(R12, 0x00000000)  returns 0x00 (0000ms, 0731ms total)
T1C30 001:150 JLINK_WriteReg(R13 (SP), 0x20002000)  returns 0x00 (0000ms, 0731ms total)
T1C30 001:150 JLINK_WriteReg(R14, 0x20000001)  returns 0x00 (0000ms, 0731ms total)
T1C30 001:150 JLINK_WriteReg(R15 (PC), 0x20000020)  returns 0x00 (0000ms, 0731ms total)
T1C30 001:150 JLINK_WriteReg(XPSR, 0x01000000)  returns 0x00 (0000ms, 0731ms total)
T1C30 001:150 JLINK_WriteReg(MSP, 0x20002000)  returns 0x00 (0000ms, 0731ms total)
T1C30 001:150 JLINK_WriteReg(PSP, 0x20002000)  returns 0x00 (0000ms, 0731ms total)
T1C30 001:150 JLINK_WriteReg(CFBP, 0x00000000)  returns 0x00 (0000ms, 0731ms total)
T1C30 001:150 JLINK_SetBPEx(Addr = 0x20000000, Type = 0xFFFFFFF2)  returns 0x00000010 (0000ms, 0731ms total)
T1C30 001:150 JLINK_Go() -- CPU_ReadMem(4 bytes @ 0xE0001000) -- CPU_WriteMem(4 bytes @ 0xE0001000) (0004ms, 0735ms total)
T1C30 001:154 JLINK_IsHalted() -- CPU_ReadMem(2 bytes @ 0x20000000)  returns TRUE (0006ms, 0741ms total)
T1C30 001:160 JLINK_ReadReg(R15 (PC))  returns 0x20000000 (0000ms, 0735ms total)
T1C30 001:160 JLINK_ClrBPEx(BPHandle = 0x00000010)  returns 0x00 (0000ms, 0735ms total)
T1C30 001:160 JLINK_ReadReg(R0)  returns 0x00000001 (0000ms, 0735ms total)
T1C30 001:160 JLINK_WriteReg(R0, 0x00001C00)  returns 0x00 (0000ms, 0735ms total)
T1C30 001:160 JLINK_WriteReg(R1, 0x00000400)  returns 0x00 (0000ms, 0735ms total)
T1C30 001:160 JLINK_WriteReg(R2, 0x000000FF)  returns 0x00 (0000ms, 0735ms total)
T1C30 001:160 JLINK_WriteReg(R3, 0x00000000)  returns 0x00 (0000ms, 0735ms total)
T1C30 001:160 JLINK_WriteReg(R4, 0x00000000)  returns 0x00 (0000ms, 0735ms total)
T1C30 001:160 JLINK_WriteReg(R5, 0x00000000)  returns 0x00 (0000ms, 0735ms total)
T1C30 001:160 JLINK_WriteReg(R6, 0x00000000)  returns 0x00 (0000ms, 0735ms total)
T1C30 001:160 JLINK_WriteReg(R7, 0x00000000)  returns 0x00 (0000ms, 0735ms total)
T1C30 001:160 JLINK_WriteReg(R8, 0x00000000)  returns 0x00 (0000ms, 0735ms total)
T1C30 001:160 JLINK_WriteReg(R9, 0x200001E8)  returns 0x00 (0000ms, 0735ms total)
T1C30 001:160 JLINK_WriteReg(R10, 0x00000000)  returns 0x00 (0000ms, 0735ms total)
T1C30 001:160 JLINK_WriteReg(R11, 0x00000000)  returns 0x00 (0000ms, 0735ms total)
T1C30 001:160 JLINK_WriteReg(R12, 0x00000000)  returns 0x00 (0000ms, 0735ms total)
T1C30 001:160 JLINK_WriteReg(R13 (SP), 0x20002000)  returns 0x00 (0000ms, 0735ms total)
T1C30 001:160 JLINK_WriteReg(R14, 0x20000001)  returns 0x00 (0000ms, 0735ms total)
T1C30 001:160 JLINK_WriteReg(R15 (PC), 0x200000CE)  returns 0x00 (0000ms, 0735ms total)
T1C30 001:160 JLINK_WriteReg(XPSR, 0x01000000)  returns 0x00 (0000ms, 0735ms total)
T1C30 001:160 JLINK_WriteReg(MSP, 0x20002000)  returns 0x00 (0000ms, 0735ms total)
T1C30 001:160 JLINK_WriteReg(PSP, 0x20002000)  returns 0x00 (0000ms, 0735ms total)
T1C30 001:160 JLINK_WriteReg(CFBP, 0x00000000)  returns 0x00 (0000ms, 0735ms total)
T1C30 001:160 JLINK_SetBPEx(Addr = 0x20000000, Type = 0xFFFFFFF2)  returns 0x00000011 (0000ms, 0735ms total)
T1C30 001:160 JLINK_Go() -- CPU_ReadMem(4 bytes @ 0xE0001000) -- CPU_WriteMem(4 bytes @ 0xE0001000) (0004ms, 0739ms total)
T1C30 001:164 JLINK_IsHalted()  returns FALSE (0001ms, 0740ms total)
T1C30 001:166 JLINK_IsHalted() -- CPU_ReadMem(2 bytes @ 0x20000000)  returns TRUE (0005ms, 0744ms total)
T1C30 001:171 JLINK_ReadReg(R15 (PC))  returns 0x20000000 (0000ms, 0739ms total)
T1C30 001:171 JLINK_ClrBPEx(BPHandle = 0x00000011)  returns 0x00 (0000ms, 0739ms total)
T1C30 001:171 JLINK_ReadReg(R0)  returns 0x00000000 (0000ms, 0739ms total)
T1C30 001:172 JLINK_WriteReg(R0, 0x00002000)  returns 0x00 (0000ms, 0739ms total)
T1C30 001:172 JLINK_WriteReg(R1, 0x00000400)  returns 0x00 (0000ms, 0739ms total)
T1C30 001:172 JLINK_WriteReg(R2, 0x000000FF)  returns 0x00 (0000ms, 0739ms total)
T1C30 001:172 JLINK_WriteReg(R3, 0x00000000)  returns 0x00 (0000ms, 0739ms total)
T1C30 001:172 JLINK_WriteReg(R4, 0x00000000)  returns 0x00 (0000ms, 0739ms total)
T1C30 001:172 JLINK_WriteReg(R5, 0x00000000)  returns 0x00 (0000ms, 0739ms total)
T1C30 001:172 JLINK_WriteReg(R6, 0x00000000)  returns 0x00 (0000ms, 0739ms total)
T1C30 001:172 JLINK_WriteReg(R7, 0x00000000)  returns 0x00 (0000ms, 0739ms total)
T1C30 001:172 JLINK_WriteReg(R8, 0x00000000)  returns 0x00 (0000ms, 0739ms total)
T1C30 001:172 JLINK_WriteReg(R9, 0x200001E8)  returns 0x00 (0000ms, 0739ms total)
T1C30 001:172 JLINK_WriteReg(R10, 0x00000000)  returns 0x00 (0000ms, 0739ms total)
T1C30 001:172 JLINK_WriteReg(R11, 0x00000000)  returns 0x00 (0000ms, 0739ms total)
T1C30 001:172 JLINK_WriteReg(R12, 0x00000000)  returns 0x00 (0000ms, 0739ms total)
T1C30 001:172 JLINK_WriteReg(R13 (SP), 0x20002000)  returns 0x00 (0000ms, 0739ms total)
T1C30 001:172 JLINK_WriteReg(R14, 0x20000001)  returns 0x00 (0000ms, 0739ms total)
T1C30 001:172 JLINK_WriteReg(R15 (PC), 0x20000020)  returns 0x00 (0000ms, 0739ms total)
T1C30 001:172 JLINK_WriteReg(XPSR, 0x01000000)  returns 0x00 (0000ms, 0739ms total)
T1C30 001:172 JLINK_WriteReg(MSP, 0x20002000)  returns 0x00 (0000ms, 0739ms total)
T1C30 001:172 JLINK_WriteReg(PSP, 0x20002000)  returns 0x00 (0000ms, 0739ms total)
T1C30 001:172 JLINK_WriteReg(CFBP, 0x00000000)  returns 0x00 (0000ms, 0739ms total)
T1C30 001:172 JLINK_SetBPEx(Addr = 0x20000000, Type = 0xFFFFFFF2)  returns 0x00000012 (0000ms, 0739ms total)
T1C30 001:172 JLINK_Go() -- CPU_ReadMem(4 bytes @ 0xE0001000) -- CPU_WriteMem(4 bytes @ 0xE0001000) (0004ms, 0743ms total)
T1C30 001:176 JLINK_IsHalted() -- CPU_ReadMem(2 bytes @ 0x20000000)  returns TRUE (0006ms, 0749ms total)
T1C30 001:182 JLINK_ReadReg(R15 (PC))  returns 0x20000000 (0000ms, 0743ms total)
T1C30 001:182 JLINK_ClrBPEx(BPHandle = 0x00000012)  returns 0x00 (0000ms, 0743ms total)
T1C30 001:182 JLINK_ReadReg(R0)  returns 0x00000001 (0000ms, 0743ms total)
T1C30 001:182 JLINK_WriteReg(R0, 0x00002000)  returns 0x00 (0000ms, 0743ms total)
T1C30 001:182 JLINK_WriteReg(R1, 0x00000400)  returns 0x00 (0000ms, 0743ms total)
T1C30 001:182 JLINK_WriteReg(R2, 0x000000FF)  returns 0x00 (0000ms, 0743ms total)
T1C30 001:182 JLINK_WriteReg(R3, 0x00000000)  returns 0x00 (0000ms, 0743ms total)
T1C30 001:182 JLINK_WriteReg(R4, 0x00000000)  returns 0x00 (0000ms, 0743ms total)
T1C30 001:182 JLINK_WriteReg(R5, 0x00000000)  returns 0x00 (0000ms, 0743ms total)
T1C30 001:182 JLINK_WriteReg(R6, 0x00000000)  returns 0x00 (0000ms, 0743ms total)
T1C30 001:182 JLINK_WriteReg(R7, 0x00000000)  returns 0x00 (0000ms, 0743ms total)
T1C30 001:182 JLINK_WriteReg(R8, 0x00000000)  returns 0x00 (0000ms, 0743ms total)
T1C30 001:182 JLINK_WriteReg(R9, 0x200001E8)  returns 0x00 (0000ms, 0743ms total)
T1C30 001:182 JLINK_WriteReg(R10, 0x00000000)  returns 0x00 (0000ms, 0743ms total)
T1C30 001:182 JLINK_WriteReg(R11, 0x00000000)  returns 0x00 (0000ms, 0743ms total)
T1C30 001:182 JLINK_WriteReg(R12, 0x00000000)  returns 0x00 (0000ms, 0743ms total)
T1C30 001:182 JLINK_WriteReg(R13 (SP), 0x20002000)  returns 0x00 (0000ms, 0743ms total)
T1C30 001:182 JLINK_WriteReg(R14, 0x20000001)  returns 0x00 (0000ms, 0743ms total)
T1C30 001:182 JLINK_WriteReg(R15 (PC), 0x200000CE)  returns 0x00 (0000ms, 0743ms total)
T1C30 001:182 JLINK_WriteReg(XPSR, 0x01000000)  returns 0x00 (0000ms, 0743ms total)
T1C30 001:182 JLINK_WriteReg(MSP, 0x20002000)  returns 0x00 (0000ms, 0743ms total)
T1C30 001:182 JLINK_WriteReg(PSP, 0x20002000)  returns 0x00 (0000ms, 0743ms total)
T1C30 001:182 JLINK_WriteReg(CFBP, 0x00000000)  returns 0x00 (0000ms, 0743ms total)
T1C30 001:182 JLINK_SetBPEx(Addr = 0x20000000, Type = 0xFFFFFFF2)  returns 0x00000013 (0000ms, 0743ms total)
T1C30 001:182 JLINK_Go() -- CPU_ReadMem(4 bytes @ 0xE0001000) -- CPU_WriteMem(4 bytes @ 0xE0001000) (0004ms, 0747ms total)
